
**** 12/14/20 17:01:23 ******* PSpice Lite (March 2016) ******* ID# 10813 ****

 ** Profile: "SCHEMATIC1-Practica6_3"  [ C:\Users\juanc\Desktop\Teleco\Segundo\FE\Practica6\Practica6_3-PSpiceFiles\SCHEMATIC1\Practi


 ****     CIRCUIT DESCRIPTION


******************************************************************************




** Creating circuit file "Practica6_3.cir" 
** WARNING: THIS AUTOMATICALLY GENERATED FILE MAY BE OVERWRITTEN BY SUBSEQUENT SIMULATIONS

*Libraries: 
* Profile Libraries :
* Local Libraries :
.LIB "../../../practica6_3-pspicefiles/practica6_3.lib" 
* From [PSPICE NETLIST] section of C:\SPB_Data\cdssetup\OrCAD_PSpice\17.2.0\PSpice.ini file:
.lib "nomd.lib" 

*Analysis directives: 
.OP
.OPTIONS ADVCONV
.PROBE64 V(alias(*)) I(alias(*)) W(alias(*)) D(alias(*)) NOISE(alias(*)) 
.INC "..\SCHEMATIC1.net" 



**** INCLUDING SCHEMATIC1.net ****
* source PRACTICA6_3
M_M1         N00150 N00143 0 0 Mbreakn  
+ L=10u  
+ W=400u         
R_Rd         N00154 N00150  1k TC=0,0 
V_Vcc         N00154 0 15V
V_Vin         N00143 0  
+SIN 3V 0 50 0 0 0

**** RESUMING Practica6_3.cir ****
.END

INFO(ORPSIM-15423): Unable to find index file practica6_3.ind for library file practica6_3.lib.

INFO(ORPSIM-15422): Making new index file practica6_3.ind for library file practica6_3.lib.

Index has 1 entries from 1 file(s).

**** 12/14/20 17:01:23 ******* PSpice Lite (March 2016) ******* ID# 10813 ****

 ** Profile: "SCHEMATIC1-Practica6_3"  [ C:\Users\juanc\Desktop\Teleco\Segundo\FE\Practica6\Practica6_3-PSpiceFiles\SCHEMATIC1\Practi


 ****     MOSFET MODEL PARAMETERS


******************************************************************************




               Mbreakn         
               NMOS            
       LEVEL    1            
           L  100.000000E-06 
           W  100.000000E-06 
         VTO    1            
          KP   50.000000E-06 
       GAMMA    0            
         PHI     .6          
      LAMBDA    0            
          IS   10.000000E-15 
          JS    0            
          PB     .8          
        PBSW     .8          
          CJ    0            
        CJSW    0            
        CGSO    0            
        CGDO    0            
        CGBO    0            
         TOX    0            
          XJ    0            
       UCRIT   10.000000E+03 
      DIOMOD    1            
         VFB    0            
        LETA    0            
        WETA    0            
          U0    0            
        TEMP    0            
         VDD    5            
       XPART    0            


**** 12/14/20 17:01:23 ******* PSpice Lite (March 2016) ******* ID# 10813 ****

 ** Profile: "SCHEMATIC1-Practica6_3"  [ C:\Users\juanc\Desktop\Teleco\Segundo\FE\Practica6\Practica6_3-PSpiceFiles\SCHEMATIC1\Practi


 ****     SMALL SIGNAL BIAS SOLUTION       TEMPERATURE =   27.000 DEG C


******************************************************************************



 NODE   VOLTAGE     NODE   VOLTAGE     NODE   VOLTAGE     NODE   VOLTAGE


(N00143)    3.0000 (N00150)   11.0000 (N00154)   15.0000 




    VOLTAGE SOURCE CURRENTS
    NAME         CURRENT

    V_Vcc       -4.000E-03
    V_Vin        0.000E+00

    TOTAL POWER DISSIPATION   6.00E-02  WATTS


**** 12/14/20 17:01:23 ******* PSpice Lite (March 2016) ******* ID# 10813 ****

 ** Profile: "SCHEMATIC1-Practica6_3"  [ C:\Users\juanc\Desktop\Teleco\Segundo\FE\Practica6\Practica6_3-PSpiceFiles\SCHEMATIC1\Practi


 ****     OPERATING POINT INFORMATION      TEMPERATURE =   27.000 DEG C


******************************************************************************






**** MOSFETS


NAME         M_M1      
MODEL        Mbreakn   
ID           4.00E-03 
VGS          3.00E+00 
VDS          1.10E+01 
VBS          0.00E+00 
VTH          1.00E+00 
VDSAT        2.00E+00 
Lin0/Sat1   -1.00E+00 
if          -1.00E+00 
ir          -1.00E+00 
TAU         -1.00E+00 
GM           4.00E-03 
GDS          0.00E+00 
GMB          0.00E+00 
CBD          0.00E+00 
CBS          0.00E+00 
CGSOV        0.00E+00 
CGDOV        0.00E+00 
CGBOV        0.00E+00 
CGS          0.00E+00 
CGD          0.00E+00 
CGB          0.00E+00 

          JOB CONCLUDED

**** 12/14/20 17:01:23 ******* PSpice Lite (March 2016) ******* ID# 10813 ****

 ** Profile: "SCHEMATIC1-Practica6_3"  [ C:\Users\juanc\Desktop\Teleco\Segundo\FE\Practica6\Practica6_3-PSpiceFiles\SCHEMATIC1\Practi


 ****     JOB STATISTICS SUMMARY


******************************************************************************



  Total job time (using Solver 1)   =         .55
