
**** 10/14/19 22:46:21 ******* PSpice Lite (March 2016) ******* ID# 10813 ****

 ** Profile: "SCHEMATIC1-Temporal"  [ D:\Anselmo\Escritorio\Segundo\FE\Practica2\Apartado3\Regulador-PSpiceFiles\SCHEMATIC1\Temporal.


 ****     CIRCUIT DESCRIPTION


******************************************************************************




** Creating circuit file "Temporal.cir" 
** WARNING: THIS AUTOMATICALLY GENERATED FILE MAY BE OVERWRITTEN BY SUBSEQUENT SIMULATIONS

*Libraries: 
* Profile Libraries :
* Local Libraries :
* From [PSPICE NETLIST] section of C:\SPB_Data\cdssetup\OrCAD_PSpice\17.2.0\PSpice.ini file:
.lib "nomd.lib" 

*Analysis directives: 
.TRAN  0 5ms 0 5us 
.OPTIONS ADVCONV
.PROBE64 V(alias(*)) I(alias(*)) W(alias(*)) D(alias(*)) NOISE(alias(*)) 
.INC "..\SCHEMATIC1.net" 



**** INCLUDING SCHEMATIC1.net ****
* source REGULADOR
V_V1         N00124 0  
+SIN 14 1 1k 0 0 0
R_R1         N00124 N00128  100 TC=0,0 
D_D1         0 N00128 D1N750 
R_R2         N00128 0  75 TC=0,0 

**** RESUMING Temporal.cir ****
.END

**** 10/14/19 22:46:21 ******* PSpice Lite (March 2016) ******* ID# 10813 ****

 ** Profile: "SCHEMATIC1-Temporal"  [ D:\Anselmo\Escritorio\Segundo\FE\Practica2\Apartado3\Regulador-PSpiceFiles\SCHEMATIC1\Temporal.


 ****     Diode MODEL PARAMETERS


******************************************************************************




               D1N750          
          IS  880.500000E-18 
         ISR    1.859000E-09 
          BV    4.7          
         IBV     .020245     
         NBV    1.6989       
        IBVL    1.955600E-03 
        NBVL   14.976        
          RS     .25         
         CJO  175.000000E-12 
          VJ     .75         
           M     .5516       
        TBV1  -21.277000E-06 


**** 10/14/19 22:46:21 ******* PSpice Lite (March 2016) ******* ID# 10813 ****

 ** Profile: "SCHEMATIC1-Temporal"  [ D:\Anselmo\Escritorio\Segundo\FE\Practica2\Apartado3\Regulador-PSpiceFiles\SCHEMATIC1\Temporal.


 ****     INITIAL TRANSIENT SOLUTION       TEMPERATURE =   27.000 DEG C


******************************************************************************



 NODE   VOLTAGE     NODE   VOLTAGE     NODE   VOLTAGE     NODE   VOLTAGE


(N00124)   14.0000 (N00128)    4.7214 




    VOLTAGE SOURCE CURRENTS
    NAME         CURRENT

    V_V1        -9.279E-02

    TOTAL POWER DISSIPATION   1.30E+00  WATTS



          JOB CONCLUDED

**** 10/14/19 22:46:21 ******* PSpice Lite (March 2016) ******* ID# 10813 ****

 ** Profile: "SCHEMATIC1-Temporal"  [ D:\Anselmo\Escritorio\Segundo\FE\Practica2\Apartado3\Regulador-PSpiceFiles\SCHEMATIC1\Temporal.


 ****     JOB STATISTICS SUMMARY


******************************************************************************



  Total job time (using Solver 1)   =         .06
